T3EEC 000:027.132   SEGGER J-Link V6.86 Log File
T3EEC 000:027.243   DLL Compiled: Sep 24 2020 17:31:31
T3EEC 000:027.256   Logging started @ 2024-06-07 02:24
T3EEC 000:027.267 - 27.273ms
T3EEC 000:027.284 JLINK_SetWarnOutHandler(...)
T3EEC 000:027.297 - 0.018ms
T3EEC 000:027.309 JLINK_OpenEx(...)
T3EEC 000:028.799   Firmware: J-Link ARM-OB STM32 compiled Aug 22 2012 19:52:04
T3EEC 000:030.747   Hardware: V7.00
T3EEC 000:030.777   S/N: 20090928
T3EEC 000:030.795   OEM: SEGGER
T3EEC 000:030.812   Feature(s): RDI,FlashDL,FlashBP,JFlash,GDB
T3EEC 000:031.858   TELNET listener socket opened on port 19021
T3EEC 000:031.926   WEBSRV Starting webserver
T3EEC 000:032.112   WEBSRV Webserver running on local port 19080
T3EEC 000:032.137 - 4.835ms returns "O.K."
T3EEC 000:032.163 JLINK_GetEmuCaps()
T3EEC 000:032.179 - 0.023ms returns 0x88EA5833
T3EEC 000:032.200 JLINK_TIF_GetAvailable(...)
T3EEC 000:032.461 - 0.275ms
T3EEC 000:032.488 JLINK_SetErrorOutHandler(...)
T3EEC 000:032.505 - 0.025ms
T3EEC 000:032.548 JLINK_ExecCommand("ProjectFile = "C:\Users\38207\Desktop\Hardwaretask\code\USER\JLinkSettings.ini"", ...). 
T3EEC 000:040.724 - 8.200ms returns 0x00
T3EEC 000:046.246 JLINK_ExecCommand("Device = STM32F103C8", ...). 
T3EEC 000:050.220   Device "STM32F103C8" selected.
T3EEC 000:050.691 - 4.416ms returns 0x00
T3EEC 000:050.722 JLINK_GetHardwareVersion()
T3EEC 000:050.738 - 0.023ms returns 70000
T3EEC 000:050.764 JLINK_GetDLLVersion()
T3EEC 000:050.779 - 0.022ms returns 68600
T3EEC 000:050.796 JLINK_GetOEMString(...)
T3EEC 000:050.812 JLINK_GetFirmwareString(...)
T3EEC 000:050.826 - 0.021ms
T3EEC 000:060.997 JLINK_GetDLLVersion()
T3EEC 000:061.033 - 0.041ms returns 68600
T3EEC 000:061.046 JLINK_GetCompileDateTime()
T3EEC 000:061.058 - 0.017ms
T3EEC 000:063.951 JLINK_GetFirmwareString(...)
T3EEC 000:063.981 - 0.035ms
T3EEC 000:066.751 JLINK_GetHardwareVersion()
T3EEC 000:066.776 - 0.031ms returns 70000
T3EEC 000:069.535 JLINK_GetSN()
T3EEC 000:069.558 - 0.028ms returns 20090928
T3EEC 000:072.208 JLINK_GetOEMString(...)
T3EEC 000:078.607 JLINK_TIF_Select(JLINKARM_TIF_SWD)
T3EEC 000:079.668 - 1.076ms returns 0x00
T3EEC 000:079.692 JLINK_HasError()
T3EEC 000:079.715 JLINK_SetSpeed(5000)
T3EEC 000:079.986 - 0.285ms
T3EEC 000:080.011 JLINK_GetId()
T3EEC 000:084.210   Found SW-DP with ID 0x1BA01477
T3EEC 000:109.941   Found SW-DP with ID 0x1BA01477
T3EEC 000:114.660   Old FW that does not support reading DPIDR via DAP jobs
T3EEC 000:121.119   Unknown DP version. Assuming DPv0
T3EEC 000:124.240   Scanning AP map to find all available APs
T3EEC 000:130.310   AP[1]: Stopped AP scan as end of AP map has been reached
T3EEC 000:133.324   AP[0]: AHB-AP (IDR: 0x14770011)
T3EEC 000:136.380   Iterating through AP map to find AHB-AP to use
T3EEC 000:145.674   AP[0]: Core found
T3EEC 000:148.457   AP[0]: AHB-AP ROM base: 0xE00FF000
T3EEC 000:156.220   CPUID register: 0x411FC231. Implementer code: 0x41 (ARM)
T3EEC 000:159.327   Found Cortex-M3 r1p1, Little endian.
T3EEC 000:260.237   -- Max. mem block: 0x00002C18
T3EEC 000:260.320   CPU_ReadMem(4 bytes @ 0xE000EDF0)
T3EEC 000:261.439   CPU_ReadMem(4 bytes @ 0xE0002000)
T3EEC 000:266.666   FPUnit: 6 code (BP) slots and 2 literal slots
T3EEC 000:266.697   CPU_ReadMem(4 bytes @ 0xE000EDFC)
T3EEC 000:267.393   CPU_WriteMem(4 bytes @ 0xE000EDFC)
T3EEC 000:268.114   CPU_ReadMem(4 bytes @ 0xE0001000)
T3EEC 000:269.087   CPU_WriteMem(4 bytes @ 0xE0001000)
T3EEC 000:269.589   CPU_ReadMem(4 bytes @ 0xE000ED88)
T3EEC 000:270.236   CPU_WriteMem(4 bytes @ 0xE000ED88)
T3EEC 000:270.932   CPU_ReadMem(4 bytes @ 0xE000ED88)
T3EEC 000:271.606   CPU_WriteMem(4 bytes @ 0xE000ED88)
T3EEC 000:276.061   CoreSight components:
T3EEC 000:279.643   ROMTbl[0] @ E00FF000
T3EEC 000:279.675   CPU_ReadMem(64 bytes @ 0xE00FF000)
T3EEC 000:280.986   CPU_ReadMem(32 bytes @ 0xE000EFE0)
T3EEC 000:286.218   ROMTbl[0][0]: E000E000, CID: B105E00D, PID: 001BB000 SCS
T3EEC 000:286.257   CPU_ReadMem(32 bytes @ 0xE0001FE0)
T3EEC 000:290.909   ROMTbl[0][1]: E0001000, CID: B105E00D, PID: 001BB002 DWT
T3EEC 000:290.993   CPU_ReadMem(32 bytes @ 0xE0002FE0)
T3EEC 000:295.197   ROMTbl[0][2]: E0002000, CID: B105E00D, PID: 000BB003 FPB
T3EEC 000:295.233   CPU_ReadMem(32 bytes @ 0xE0000FE0)
T3EEC 000:300.153   ROMTbl[0][3]: E0000000, CID: B105E00D, PID: 001BB001 ITM
T3EEC 000:300.192   CPU_ReadMem(32 bytes @ 0xE0040FE0)
T3EEC 000:305.270   ROMTbl[0][4]: E0040000, CID: B105900D, PID: 001BB923 TPIU-Lite
T3EEC 000:305.712 - 225.716ms returns 0x1BA01477
T3EEC 000:305.743 JLINK_GetDLLVersion()
T3EEC 000:305.757 - 0.020ms returns 68600
T3EEC 000:305.772 JLINK_CORE_GetFound()
T3EEC 000:305.786 - 0.020ms returns 0x30000FF
T3EEC 000:305.800 JLINK_GetDebugInfo(0x100 = JLINKARM_ROM_TABLE_ADDR_INDEX)
T3EEC 000:305.816   Value=0xE00FF000
T3EEC 000:305.833 - 0.038ms returns 0
T3EEC 000:309.159 JLINK_GetDebugInfo(0x100 = JLINKARM_ROM_TABLE_ADDR_INDEX)
T3EEC 000:309.195   Value=0xE00FF000
T3EEC 000:309.212 - 0.058ms returns 0
T3EEC 000:309.225 JLINK_GetDebugInfo(0x101 = JLINKARM_DEBUG_INFO_ETM_ADDR_INDEX)
T3EEC 000:309.237   Value=0x00000000
T3EEC 000:309.254 - 0.034ms returns 0
T3EEC 000:309.278 JLINK_ReadMemEx(0xE0041FF0, 0x10 Bytes, Flags = 0x02000004)
T3EEC 000:309.363   CPU_ReadMem(16 bytes @ 0xE0041FF0)
T3EEC 000:310.625   Data:  00 00 00 00 00 00 00 00 00 00 00 00 00 00 00 00
T3EEC 000:310.650 - 1.378ms returns 16 (0x10)
T3EEC 000:310.665 JLINK_GetDebugInfo(0x102 = JLINKARM_DEBUG_INFO_MTB_ADDR_INDEX)
T3EEC 000:310.677   Value=0x00000000
T3EEC 000:310.698 - 0.039ms returns 0
T3EEC 000:310.711 JLINK_GetDebugInfo(0x103 = JLINKARM_DEBUG_INFO_TPIU_ADDR_INDEX)
T3EEC 000:310.722   Value=0xE0040000
T3EEC 000:310.739 - 0.034ms returns 0
T3EEC 000:310.751 JLINK_GetDebugInfo(0x104 = JLINKARM_DEBUG_INFO_ITM_ADDR_INDEX)
T3EEC 000:310.763   Value=0xE0000000
T3EEC 000:310.780 - 0.034ms returns 0
T3EEC 000:310.792 JLINK_GetDebugInfo(0x105 = JLINKARM_DEBUG_INFO_DWT_ADDR_INDEX)
T3EEC 000:310.804   Value=0xE0001000
T3EEC 000:310.820 - 0.034ms returns 0
T3EEC 000:310.832 JLINK_GetDebugInfo(0x106 = JLINKARM_DEBUG_INFO_FPB_ADDR_INDEX)
T3EEC 000:310.844   Value=0xE0002000
T3EEC 000:310.861 - 0.034ms returns 0
T3EEC 000:310.873 JLINK_GetDebugInfo(0x107 = JLINKARM_DEBUG_INFO_NVIC_ADDR_INDEX)
T3EEC 000:310.884   Value=0xE000E000
T3EEC 000:310.901 - 0.033ms returns 0
T3EEC 000:310.913 JLINK_GetDebugInfo(0x10C = JLINKARM_DEBUG_INFO_DBG_ADDR_INDEX)
T3EEC 000:310.924   Value=0xE000EDF0
T3EEC 000:310.941 - 0.033ms returns 0
T3EEC 000:310.953 JLINK_GetDebugInfo(0x01 = Unknown)
T3EEC 000:310.965   Value=0x00000000
T3EEC 000:310.982 - 0.034ms returns 0
T3EEC 000:310.994 JLINK_ReadMemU32(0xE000ED00, 0x1 Items)
T3EEC 000:311.009   CPU_ReadMem(4 bytes @ 0xE000ED00)
T3EEC 000:311.745   Data:  31 C2 1F 41
T3EEC 000:311.916   Debug reg: CPUID
T3EEC 000:311.936 - 0.949ms returns 1 (0x1)
T3EEC 000:311.954 JLINK_GetDebugInfo(0x10F = JLINKARM_DEBUG_INFO_HAS_CORTEX_M_SECURITY_EXT_INDEX)
T3EEC 000:311.969   Value=0x00000000
T3EEC 000:311.989 - 0.042ms returns 0
T3EEC 000:312.005 JLINK_HasError()
T3EEC 000:312.020 JLINK_SetResetType(JLINKARM_CM3_RESET_TYPE_NORMAL)
T3EEC 000:312.035 - 0.021ms returns JLINKARM_CM3_RESET_TYPE_NORMAL
T3EEC 000:312.050 JLINK_Reset()
T3EEC 000:312.080   CPU is running
T3EEC 000:312.102   CPU_WriteMem(4 bytes @ 0xE000EDF0)
T3EEC 000:312.854   CPU is running
T3EEC 000:312.894   CPU_WriteMem(4 bytes @ 0xE000EDFC)
T3EEC 000:317.798   Reset: Halt core after reset via DEMCR.VC_CORERESET.
T3EEC 000:321.846   Reset: Reset device via AIRCR.SYSRESETREQ.
T3EEC 000:321.878   CPU is running
T3EEC 000:321.898   CPU_WriteMem(4 bytes @ 0xE000ED0C)
T3EEC 000:374.337   CPU_ReadMem(4 bytes @ 0xE000EDF0)
T3EEC 000:374.993   CPU_ReadMem(4 bytes @ 0xE000EDF0)
T3EEC 000:375.662   CPU is running
T3EEC 000:375.697   CPU_WriteMem(4 bytes @ 0xE000EDF0)
T3EEC 000:376.456   CPU is running
T3EEC 000:376.490   CPU_WriteMem(4 bytes @ 0xE000EDFC)
T3EEC 000:382.996   CPU_ReadMem(4 bytes @ 0xE000EDF0)
T3EEC 000:387.369   CPU_WriteMem(4 bytes @ 0xE0002000)
T3EEC 000:388.059   CPU_ReadMem(4 bytes @ 0xE000EDFC)
T3EEC 000:388.766   CPU_ReadMem(4 bytes @ 0xE0001000)
T3EEC 000:389.419 - 77.398ms
T3EEC 000:389.475 JLINK_Halt()
T3EEC 000:389.502 - 0.036ms returns 0x00
T3EEC 000:389.529 JLINK_ReadMemU32(0xE000EDF0, 0x1 Items)
T3EEC 000:389.565   CPU_ReadMem(4 bytes @ 0xE000EDF0)
T3EEC 000:390.247   Data:  03 00 03 00
T3EEC 000:390.291   Debug reg: DHCSR
T3EEC 000:390.320 - 0.806ms returns 1 (0x1)
T3EEC 000:390.405 JLINK_WriteU32_64(0xE000EDF0, 0xA05F0003)
T3EEC 000:390.431   Debug reg: DHCSR
T3EEC 000:390.481   CPU_WriteMem(4 bytes @ 0xE000EDF0)
T3EEC 000:391.187 - 0.809ms returns 0 (0x00000000)
T3EEC 000:391.232 JLINK_WriteU32_64(0xE000EDFC, 0x01000000)
T3EEC 000:391.259   Debug reg: DEMCR
T3EEC 000:391.307   CPU_WriteMem(4 bytes @ 0xE000EDFC)
T3EEC 000:391.997 - 0.787ms returns 0 (0x00000000)
T3EEC 000:405.587 JLINK_GetHWStatus(...)
T3EEC 000:405.838 - 0.265ms returns 0
T3EEC 000:414.618 JLINK_GetNumBPUnits(Type = 0xFFFFFF00)
T3EEC 000:414.646 - 0.034ms returns 0x06
T3EEC 000:414.659 JLINK_GetNumBPUnits(Type = 0xF0)
T3EEC 000:414.671 - 0.017ms returns 0x2000
T3EEC 000:414.683 JLINK_GetNumWPUnits()
T3EEC 000:414.695 - 0.017ms returns 4
T3EEC 000:423.535 JLINK_GetSpeed()
T3EEC 000:423.568 - 0.039ms returns 4000
T3EEC 000:429.497 JLINK_ReadMemU32(0xE000E004, 0x1 Items)
T3EEC 000:429.545   CPU_ReadMem(4 bytes @ 0xE000E004)
T3EEC 000:430.238   Data:  01 00 00 00
T3EEC 000:430.264 - 0.773ms returns 1 (0x1)
T3EEC 000:430.279 JLINK_ReadMemU32(0xE000E004, 0x1 Items)
T3EEC 000:430.294   CPU_ReadMem(4 bytes @ 0xE000E004)
T3EEC 000:430.981   Data:  01 00 00 00
T3EEC 000:431.006 - 0.733ms returns 1 (0x1)
T3EEC 000:431.021 JLINK_WriteMemEx(0xE0001000, 0x0000001C Bytes, Flags = 0x02000004)
T3EEC 000:431.033   Data:  01 00 00 00 00 00 00 00 00 00 00 00 00 00 00 00 ...
T3EEC 000:431.243   CPU_WriteMem(28 bytes @ 0xE0001000)
T3EEC 000:432.024 - 1.025ms returns 0x1C
T3EEC 000:432.061 JLINK_Halt()
T3EEC 000:432.073 - 0.017ms returns 0x00
T3EEC 000:432.085 JLINK_IsHalted()
T3EEC 000:432.098 - 0.018ms returns TRUE
T3EEC 000:435.072 JLINK_WriteMem(0x20000000, 0x164 Bytes, ...)
T3EEC 000:435.101   Data:  00 BE 0A E0 0D 78 2D 06 68 40 08 24 40 00 00 D3 ...
T3EEC 000:435.320   CPU_WriteMem(356 bytes @ 0x20000000)
T3EEC 000:440.371 - 5.344ms returns 0x164
T3EEC 000:440.460 JLINK_HasError()
T3EEC 000:440.475 JLINK_WriteReg(R0, 0x08000000)
T3EEC 000:440.491 - 0.022ms returns 0
T3EEC 000:440.503 JLINK_WriteReg(R1, 0x00B71B00)
T3EEC 000:440.515 - 0.017ms returns 0
T3EEC 000:440.527 JLINK_WriteReg(R2, 0x00000001)
T3EEC 000:440.539 - 0.017ms returns 0
T3EEC 000:440.551 JLINK_WriteReg(R3, 0x00000000)
T3EEC 000:440.563 - 0.017ms returns 0
T3EEC 000:440.575 JLINK_WriteReg(R4, 0x00000000)
T3EEC 000:440.586 - 0.018ms returns 0
T3EEC 000:440.601 JLINK_WriteReg(R5, 0x00000000)
T3EEC 000:440.613 - 0.017ms returns 0
T3EEC 000:440.625 JLINK_WriteReg(R6, 0x00000000)
T3EEC 000:440.637 - 0.017ms returns 0
T3EEC 000:440.649 JLINK_WriteReg(R7, 0x00000000)
T3EEC 000:440.664 - 0.021ms returns 0
T3EEC 000:440.676 JLINK_WriteReg(R8, 0x00000000)
T3EEC 000:440.702 - 0.031ms returns 0
T3EEC 000:440.714 JLINK_WriteReg(R9, 0x20000160)
T3EEC 000:440.726 - 0.017ms returns 0
T3EEC 000:440.738 JLINK_WriteReg(R10, 0x00000000)
T3EEC 000:440.750 - 0.017ms returns 0
T3EEC 000:440.762 JLINK_WriteReg(R11, 0x00000000)
T3EEC 000:440.773 - 0.017ms returns 0
T3EEC 000:440.785 JLINK_WriteReg(R12, 0x00000000)
T3EEC 000:440.797 - 0.017ms returns 0
T3EEC 000:440.809 JLINK_WriteReg(R13 (SP), 0x20001000)
T3EEC 000:440.821 - 0.018ms returns 0
T3EEC 000:440.833 JLINK_WriteReg(R14, 0x20000001)
T3EEC 000:440.845 - 0.017ms returns 0
T3EEC 000:440.857 JLINK_WriteReg(R15 (PC), 0x20000038)
T3EEC 000:440.872 - 0.020ms returns 0
T3EEC 000:440.885 JLINK_WriteReg(XPSR, 0x01000000)
T3EEC 000:440.896 - 0.017ms returns 0
T3EEC 000:440.908 JLINK_WriteReg(MSP, 0x20001000)
T3EEC 000:440.920 - 0.017ms returns 0
T3EEC 000:440.932 JLINK_WriteReg(PSP, 0x20001000)
T3EEC 000:440.944 - 0.017ms returns 0
T3EEC 000:440.956 JLINK_WriteReg(CFBP, 0x00000000)
T3EEC 000:440.970 - 0.020ms returns 0
T3EEC 000:440.982 JLINK_SetBPEx(Addr = 0x20000000, Type = 0xFFFFFFF2)
T3EEC 000:440.999   CPU_ReadMem(2 bytes @ 0x20000000)
T3EEC 000:441.538 - 0.572ms returns 0x00000001
T3EEC 000:441.565 JLINK_Go()
T3EEC 000:441.583   CPU_WriteMem(2 bytes @ 0x20000000)
T3EEC 000:442.623   CPU_ReadMem(4 bytes @ 0xE0001000)
T3EEC 000:443.106   CPU_WriteMem(4 bytes @ 0xE0002008)
T3EEC 000:443.139   CPU_WriteMem(4 bytes @ 0xE000200C)
T3EEC 000:443.161   CPU_WriteMem(4 bytes @ 0xE0002010)
T3EEC 000:443.217   CPU_WriteMem(4 bytes @ 0xE0002014)
T3EEC 000:443.253   CPU_WriteMem(4 bytes @ 0xE0002018)
T3EEC 000:443.273   CPU_WriteMem(4 bytes @ 0xE000201C)
T3EEC 000:445.861   CPU_WriteMem(4 bytes @ 0xE0001004)
T3EEC 000:449.766 - 8.218ms
T3EEC 000:449.797 JLINK_IsHalted()
T3EEC 000:453.038   CPU_ReadMem(2 bytes @ 0x20000000)
T3EEC 000:453.523 - 3.737ms returns TRUE
T3EEC 000:453.547 JLINK_ReadReg(R15 (PC))
T3EEC 000:453.566 - 0.027ms returns 0x20000000
T3EEC 000:453.583 JLINK_ClrBPEx(BPHandle = 0x00000001)
T3EEC 000:453.599 - 0.024ms returns 0x00
T3EEC 000:453.616 JLINK_ReadReg(R0)
T3EEC 000:453.633 - 0.024ms returns 0x00000000
T3EEC 000:454.020 JLINK_HasError()
T3EEC 000:454.043 JLINK_WriteReg(R0, 0x08000000)
T3EEC 000:454.060 - 0.024ms returns 0
T3EEC 000:454.076 JLINK_WriteReg(R1, 0x00B71B00)
T3EEC 000:454.091 - 0.022ms returns 0
T3EEC 000:454.107 JLINK_WriteReg(R2, 0x00000001)
T3EEC 000:454.122 - 0.022ms returns 0
T3EEC 000:454.138 JLINK_WriteReg(R3, 0x00000000)
T3EEC 000:454.153 - 0.022ms returns 0
T3EEC 000:454.168 JLINK_WriteReg(R4, 0x00000000)
T3EEC 000:454.182 - 0.021ms returns 0
T3EEC 000:454.198 JLINK_WriteReg(R5, 0x00000000)
T3EEC 000:454.213 - 0.022ms returns 0
T3EEC 000:454.229 JLINK_WriteReg(R6, 0x00000000)
T3EEC 000:454.244 - 0.023ms returns 0
T3EEC 000:454.260 JLINK_WriteReg(R7, 0x00000000)
T3EEC 000:454.275 - 0.022ms returns 0
T3EEC 000:454.292 JLINK_WriteReg(R8, 0x00000000)
T3EEC 000:454.306 - 0.021ms returns 0
T3EEC 000:454.323 JLINK_WriteReg(R9, 0x20000160)
T3EEC 000:454.339 - 0.024ms returns 0
T3EEC 000:454.356 JLINK_WriteReg(R10, 0x00000000)
T3EEC 000:454.371 - 0.022ms returns 0
T3EEC 000:454.386 JLINK_WriteReg(R11, 0x00000000)
T3EEC 000:454.401 - 0.022ms returns 0
T3EEC 000:454.416 JLINK_WriteReg(R12, 0x00000000)
T3EEC 000:454.432 - 0.024ms returns 0
T3EEC 000:454.448 JLINK_WriteReg(R13 (SP), 0x20001000)
T3EEC 000:454.465 - 0.023ms returns 0
T3EEC 000:454.480 JLINK_WriteReg(R14, 0x20000001)
T3EEC 000:454.497 - 0.024ms returns 0
T3EEC 000:454.512 JLINK_WriteReg(R15 (PC), 0x2000007C)
T3EEC 000:454.526 - 0.021ms returns 0
T3EEC 000:454.541 JLINK_WriteReg(XPSR, 0x01000000)
T3EEC 000:454.561 - 0.027ms returns 0
T3EEC 000:454.577 JLINK_WriteReg(MSP, 0x20001000)
T3EEC 000:454.592 - 0.023ms returns 0
T3EEC 000:454.618 JLINK_WriteReg(PSP, 0x20001000)
T3EEC 000:454.635 - 0.024ms returns 0
T3EEC 000:454.651 JLINK_WriteReg(CFBP, 0x00000000)
T3EEC 000:454.667 - 0.023ms returns 0
T3EEC 000:454.684 JLINK_SetBPEx(Addr = 0x20000000, Type = 0xFFFFFFF2)
T3EEC 000:454.702 - 0.025ms returns 0x00000002
T3EEC 000:454.718 JLINK_Go()
T3EEC 000:454.741   CPU_ReadMem(4 bytes @ 0xE0001000)
T3EEC 000:458.356 - 3.654ms
T3EEC 000:458.386 JLINK_IsHalted()
T3EEC 000:458.808 - 0.437ms returns FALSE
T3EEC 000:458.837 JLINK_HasError()
T3EEC 000:476.078 JLINK_IsHalted()
T3EEC 000:476.574 - 0.510ms returns FALSE
T3EEC 000:476.599 JLINK_HasError()
T3EEC 000:478.143 JLINK_IsHalted()
T3EEC 000:478.599 - 0.469ms returns FALSE
T3EEC 000:478.623 JLINK_HasError()
T3EEC 000:480.104 JLINK_IsHalted()
T3EEC 000:483.626   CPU_ReadMem(2 bytes @ 0x20000000)
T3EEC 000:484.317 - 4.227ms returns TRUE
T3EEC 000:484.347 JLINK_ReadReg(R15 (PC))
T3EEC 000:484.363 - 0.021ms returns 0x20000000
T3EEC 000:484.375 JLINK_ClrBPEx(BPHandle = 0x00000002)
T3EEC 000:484.388 - 0.018ms returns 0x00
T3EEC 000:484.400 JLINK_ReadReg(R0)
T3EEC 000:484.412 - 0.017ms returns 0x00000000
T3EEC 000:539.794 JLINK_HasError()
T3EEC 000:539.893 JLINK_WriteReg(R0, 0x00000001)
T3EEC 000:540.045 - 0.172ms returns 0
T3EEC 000:540.088 JLINK_WriteReg(R1, 0x00B71B00)
T3EEC 000:540.128 - 0.058ms returns 0
T3EEC 000:540.169 JLINK_WriteReg(R2, 0x00000001)
T3EEC 000:540.207 - 0.057ms returns 0
T3EEC 000:540.248 JLINK_WriteReg(R3, 0x00000000)
T3EEC 000:540.287 - 0.066ms returns 0
T3EEC 000:540.342 JLINK_WriteReg(R4, 0x00000000)
T3EEC 000:540.381 - 0.058ms returns 0
T3EEC 000:540.422 JLINK_WriteReg(R5, 0x00000000)
T3EEC 000:540.461 - 0.058ms returns 0
T3EEC 000:540.501 JLINK_WriteReg(R6, 0x00000000)
T3EEC 000:540.541 - 0.058ms returns 0
T3EEC 000:540.581 JLINK_WriteReg(R7, 0x00000000)
T3EEC 000:540.649 - 0.087ms returns 0
T3EEC 000:540.691 JLINK_WriteReg(R8, 0x00000000)
T3EEC 000:540.730 - 0.058ms returns 0
T3EEC 000:540.770 JLINK_WriteReg(R9, 0x20000160)
T3EEC 000:540.809 - 0.058ms returns 0
T3EEC 000:540.850 JLINK_WriteReg(R10, 0x00000000)
T3EEC 000:540.887 - 0.054ms returns 0
T3EEC 000:540.924 JLINK_WriteReg(R11, 0x00000000)
T3EEC 000:540.961 - 0.054ms returns 0
T3EEC 000:540.998 JLINK_WriteReg(R12, 0x00000000)
T3EEC 000:541.035 - 0.054ms returns 0
T3EEC 000:541.072 JLINK_WriteReg(R13 (SP), 0x20001000)
T3EEC 000:541.182 - 0.132ms returns 0
T3EEC 000:541.230 JLINK_WriteReg(R14, 0x20000001)
T3EEC 000:541.275 - 0.067ms returns 0
T3EEC 000:541.432 JLINK_WriteReg(R15 (PC), 0x2000006A)
T3EEC 000:541.485 - 0.070ms returns 0
T3EEC 000:541.522 JLINK_WriteReg(XPSR, 0x01000000)
T3EEC 000:541.558 - 0.052ms returns 0
T3EEC 000:541.593 JLINK_WriteReg(MSP, 0x20001000)
T3EEC 000:541.628 - 0.051ms returns 0
T3EEC 000:541.664 JLINK_WriteReg(PSP, 0x20001000)
T3EEC 000:541.698 - 0.050ms returns 0
T3EEC 000:541.731 JLINK_WriteReg(CFBP, 0x00000000)
T3EEC 000:541.769 - 0.053ms returns 0
T3EEC 000:541.803 JLINK_SetBPEx(Addr = 0x20000000, Type = 0xFFFFFFF2)
T3EEC 000:541.839 - 0.052ms returns 0x00000003
T3EEC 000:541.874 JLINK_Go()
T3EEC 000:541.923   CPU_ReadMem(4 bytes @ 0xE0001000)
T3EEC 000:546.046 - 4.205ms
T3EEC 000:546.102 JLINK_IsHalted()
T3EEC 000:549.705   CPU_ReadMem(2 bytes @ 0x20000000)
T3EEC 000:550.405 - 4.327ms returns TRUE
T3EEC 000:550.447 JLINK_ReadReg(R15 (PC))
T3EEC 000:550.472 - 0.035ms returns 0x20000000
T3EEC 000:550.494 JLINK_ClrBPEx(BPHandle = 0x00000003)
T3EEC 000:550.515 - 0.031ms returns 0x00
T3EEC 000:550.536 JLINK_ReadReg(R0)
T3EEC 000:550.557 - 0.035ms returns 0x00000000
T3EEC 000:558.246 JLINK_WriteMem(0x20000000, 0x164 Bytes, ...)
T3EEC 000:558.283   Data:  00 BE 0A E0 0D 78 2D 06 68 40 08 24 40 00 00 D3 ...
T3EEC 000:558.313   CPU_WriteMem(356 bytes @ 0x20000000)
T3EEC 000:563.161 - 4.955ms returns 0x164
T3EEC 000:563.292 JLINK_HasError()
T3EEC 000:563.345 JLINK_WriteReg(R0, 0x08000000)
T3EEC 000:563.381 - 0.052ms returns 0
T3EEC 000:563.403 JLINK_WriteReg(R1, 0x00B71B00)
T3EEC 000:563.415 - 0.017ms returns 0
T3EEC 000:563.428 JLINK_WriteReg(R2, 0x00000002)
T3EEC 000:563.439 - 0.017ms returns 0
T3EEC 000:563.451 JLINK_WriteReg(R3, 0x00000000)
T3EEC 000:563.463 - 0.017ms returns 0
T3EEC 000:563.475 JLINK_WriteReg(R4, 0x00000000)
T3EEC 000:563.487 - 0.017ms returns 0
T3EEC 000:563.499 JLINK_WriteReg(R5, 0x00000000)
T3EEC 000:563.510 - 0.017ms returns 0
T3EEC 000:563.522 JLINK_WriteReg(R6, 0x00000000)
T3EEC 000:563.534 - 0.017ms returns 0
T3EEC 000:563.546 JLINK_WriteReg(R7, 0x00000000)
T3EEC 000:563.558 - 0.017ms returns 0
T3EEC 000:563.570 JLINK_WriteReg(R8, 0x00000000)
T3EEC 000:563.581 - 0.017ms returns 0
T3EEC 000:563.593 JLINK_WriteReg(R9, 0x20000160)
T3EEC 000:563.605 - 0.017ms returns 0
T3EEC 000:563.617 JLINK_WriteReg(R10, 0x00000000)
T3EEC 000:563.629 - 0.017ms returns 0
T3EEC 000:563.641 JLINK_WriteReg(R11, 0x00000000)
T3EEC 000:563.652 - 0.018ms returns 0
T3EEC 000:563.666 JLINK_WriteReg(R12, 0x00000000)
T3EEC 000:563.677 - 0.017ms returns 0
T3EEC 000:563.689 JLINK_WriteReg(R13 (SP), 0x20001000)
T3EEC 000:563.702 - 0.018ms returns 0
T3EEC 000:563.714 JLINK_WriteReg(R14, 0x20000001)
T3EEC 000:563.726 - 0.017ms returns 0
T3EEC 000:563.738 JLINK_WriteReg(R15 (PC), 0x20000038)
T3EEC 000:563.791 - 0.061ms returns 0
T3EEC 000:563.805 JLINK_WriteReg(XPSR, 0x01000000)
T3EEC 000:563.817 - 0.017ms returns 0
T3EEC 000:563.830 JLINK_WriteReg(MSP, 0x20001000)
T3EEC 000:563.841 - 0.017ms returns 0
T3EEC 000:563.853 JLINK_WriteReg(PSP, 0x20001000)
T3EEC 000:563.865 - 0.017ms returns 0
T3EEC 000:563.877 JLINK_WriteReg(CFBP, 0x00000000)
T3EEC 000:563.889 - 0.017ms returns 0
T3EEC 000:563.901 JLINK_SetBPEx(Addr = 0x20000000, Type = 0xFFFFFFF2)
T3EEC 000:563.918   CPU_ReadMem(2 bytes @ 0x20000000)
T3EEC 000:564.455 - 0.576ms returns 0x00000004
T3EEC 000:564.487 JLINK_Go()
T3EEC 000:564.503   CPU_WriteMem(2 bytes @ 0x20000000)
T3EEC 000:565.138   CPU_ReadMem(4 bytes @ 0xE0001000)
T3EEC 000:568.926 - 4.457ms
T3EEC 000:568.954 JLINK_IsHalted()
T3EEC 000:572.507   CPU_ReadMem(2 bytes @ 0x20000000)
T3EEC 000:573.273 - 4.332ms returns TRUE
T3EEC 000:573.296 JLINK_ReadReg(R15 (PC))
T3EEC 000:573.311 - 0.020ms returns 0x20000000
T3EEC 000:573.323 JLINK_ClrBPEx(BPHandle = 0x00000004)
T3EEC 000:573.335 - 0.017ms returns 0x00
T3EEC 000:573.348 JLINK_ReadReg(R0)
T3EEC 000:573.360 - 0.017ms returns 0x00000000
T3EEC 000:574.156 JLINK_WriteMem(0x20000164, 0x29C Bytes, ...)
T3EEC 000:574.177   Data:  F8 07 00 20 D5 01 00 08 89 14 00 08 ED 0D 00 08 ...
T3EEC 000:574.202   CPU_WriteMem(668 bytes @ 0x20000164)
T3EEC 000:582.687 - 8.546ms returns 0x29C
T3EEC 000:582.712 JLINK_WriteMem(0x20000400, 0x164 Bytes, ...)
T3EEC 000:582.725   Data:  2D 00 00 00 2B 00 00 00 20 00 00 00 2D E9 F0 5F ...
T3EEC 000:582.749   CPU_WriteMem(356 bytes @ 0x20000400)
T3EEC 000:587.665 - 4.999ms returns 0x164
T3EEC 000:587.743 JLINK_HasError()
T3EEC 000:587.759 JLINK_WriteReg(R0, 0x08000000)
T3EEC 000:587.781 - 0.027ms returns 0
T3EEC 000:587.794 JLINK_WriteReg(R1, 0x00000400)
T3EEC 000:587.807 - 0.019ms returns 0
T3EEC 000:587.820 JLINK_WriteReg(R2, 0x20000164)
T3EEC 000:587.832 - 0.018ms returns 0
T3EEC 000:587.845 JLINK_WriteReg(R3, 0x00000000)
T3EEC 000:587.858 - 0.018ms returns 0
T3EEC 000:587.884 JLINK_WriteReg(R4, 0x00000000)
T3EEC 000:587.897 - 0.019ms returns 0
T3EEC 000:587.910 JLINK_WriteReg(R5, 0x00000000)
T3EEC 000:587.922 - 0.018ms returns 0
T3EEC 000:587.935 JLINK_WriteReg(R6, 0x00000000)
T3EEC 000:587.948 - 0.018ms returns 0
T3EEC 000:587.961 JLINK_WriteReg(R7, 0x00000000)
T3EEC 000:587.974 - 0.019ms returns 0
T3EEC 000:587.989 JLINK_WriteReg(R8, 0x00000000)
T3EEC 000:588.002 - 0.019ms returns 0
T3EEC 000:588.015 JLINK_WriteReg(R9, 0x20000160)
T3EEC 000:588.027 - 0.018ms returns 0
T3EEC 000:588.040 JLINK_WriteReg(R10, 0x00000000)
T3EEC 000:588.052 - 0.018ms returns 0
T3EEC 000:588.067 JLINK_WriteReg(R11, 0x00000000)
T3EEC 000:588.080 - 0.018ms returns 0
T3EEC 000:588.100 JLINK_WriteReg(R12, 0x00000000)
T3EEC 000:588.118 - 0.023ms returns 0
T3EEC 000:588.131 JLINK_WriteReg(R13 (SP), 0x20001000)
T3EEC 000:588.144 - 0.019ms returns 0
T3EEC 000:588.157 JLINK_WriteReg(R14, 0x20000001)
T3EEC 000:588.170 - 0.018ms returns 0
T3EEC 000:588.184 JLINK_WriteReg(R15 (PC), 0x200000F4)
T3EEC 000:588.197 - 0.019ms returns 0
T3EEC 000:588.217 JLINK_WriteReg(XPSR, 0x01000000)
T3EEC 000:588.230 - 0.019ms returns 0
T3EEC 000:588.243 JLINK_WriteReg(MSP, 0x20001000)
T3EEC 000:588.256 - 0.018ms returns 0
T3EEC 000:588.269 JLINK_WriteReg(PSP, 0x20001000)
T3EEC 000:588.281 - 0.018ms returns 0
T3EEC 000:588.295 JLINK_WriteReg(CFBP, 0x00000000)
T3EEC 000:588.307 - 0.018ms returns 0
T3EEC 000:588.327 JLINK_SetBPEx(Addr = 0x20000000, Type = 0xFFFFFFF2)
T3EEC 000:588.341 - 0.020ms returns 0x00000005
T3EEC 000:588.354 JLINK_Go()
T3EEC 000:588.387   CPU_ReadMem(4 bytes @ 0xE0001000)
T3EEC 000:592.947 - 4.616ms
T3EEC 000:592.986 JLINK_IsHalted()
T3EEC 000:593.730 - 0.758ms returns FALSE
T3EEC 000:593.758 JLINK_HasError()
T3EEC 000:598.041 JLINK_IsHalted()
T3EEC 000:598.826 - 0.799ms returns FALSE
T3EEC 000:598.849 JLINK_HasError()
T3EEC 000:600.064 JLINK_IsHalted()
T3EEC 000:600.928 - 0.880ms returns FALSE
T3EEC 000:600.954 JLINK_HasError()
T3EEC 000:602.277 JLINK_IsHalted()
T3EEC 000:602.995 - 0.750ms returns FALSE
T3EEC 000:603.039 JLINK_HasError()
T3EEC 000:604.165 JLINK_IsHalted()
T3EEC 000:604.791 - 0.642ms returns FALSE
T3EEC 000:604.818 JLINK_HasError()
T3EEC 000:606.077 JLINK_IsHalted()
T3EEC 000:606.679 - 0.619ms returns FALSE
T3EEC 000:606.707 JLINK_HasError()
T3EEC 000:608.606 JLINK_IsHalted()
T3EEC 000:609.196 - 0.643ms returns FALSE
T3EEC 000:609.269 JLINK_HasError()
T3EEC 000:610.594 JLINK_IsHalted()
T3EEC 000:611.232 - 0.655ms returns FALSE
T3EEC 000:611.260 JLINK_HasError()
T3EEC 000:612.383 JLINK_IsHalted()
T3EEC 000:613.081 - 0.722ms returns FALSE
T3EEC 000:613.118 JLINK_HasError()
T3EEC 000:614.363 JLINK_IsHalted()
T3EEC 000:615.073 - 0.731ms returns FALSE
T3EEC 000:615.108 JLINK_HasError()
T3EEC 000:616.705 JLINK_IsHalted()
T3EEC 000:617.467 - 0.816ms returns FALSE
T3EEC 000:617.540 JLINK_HasError()
T3EEC 000:619.110 JLINK_IsHalted()
T3EEC 000:619.743 - 0.655ms returns FALSE
T3EEC 000:619.778 JLINK_HasError()
T3EEC 000:621.142 JLINK_IsHalted()
T3EEC 000:621.843 - 0.725ms returns FALSE
T3EEC 000:621.883 JLINK_HasError()
T3EEC 000:623.624 JLINK_IsHalted()
T3EEC 000:627.302   CPU_ReadMem(2 bytes @ 0x20000000)
T3EEC 000:628.074 - 4.473ms returns TRUE
T3EEC 000:628.112 JLINK_ReadReg(R15 (PC))
T3EEC 000:628.137 - 0.034ms returns 0x20000000
T3EEC 000:628.158 JLINK_ClrBPEx(BPHandle = 0x00000005)
T3EEC 000:628.177 - 0.029ms returns 0x00
T3EEC 000:628.197 JLINK_ReadReg(R0)
T3EEC 000:628.217 - 0.028ms returns 0x00000000
T3EEC 000:628.848 JLINK_WriteMem(0x20000164, 0x29C Bytes, ...)
T3EEC 000:628.887   Data:  01 20 10 BD 4F F0 FF 30 10 BD 1A B1 D3 07 03 D0 ...
T3EEC 000:628.932   CPU_WriteMem(668 bytes @ 0x20000164)
T3EEC 000:637.336 - 8.532ms returns 0x29C
T3EEC 000:637.399 JLINK_WriteMem(0x20000400, 0x164 Bytes, ...)
T3EEC 000:637.422   Data:  F1 F9 00 21 60 15 01 F0 ED F9 17 E0 0D 48 84 42 ...
T3EEC 000:637.469   CPU_WriteMem(356 bytes @ 0x20000400)
T3EEC 000:643.526 - 6.159ms returns 0x164
T3EEC 000:643.580 JLINK_HasError()
T3EEC 000:643.602 JLINK_WriteReg(R0, 0x08000400)
T3EEC 000:643.627 - 0.034ms returns 0
T3EEC 000:643.647 JLINK_WriteReg(R1, 0x00000400)
T3EEC 000:643.667 - 0.029ms returns 0
T3EEC 000:643.686 JLINK_WriteReg(R2, 0x20000164)
T3EEC 000:643.706 - 0.028ms returns 0
T3EEC 000:643.725 JLINK_WriteReg(R3, 0x00000000)
T3EEC 000:643.744 - 0.028ms returns 0
T3EEC 000:643.764 JLINK_WriteReg(R4, 0x00000000)
T3EEC 000:643.783 - 0.028ms returns 0
T3EEC 000:643.803 JLINK_WriteReg(R5, 0x00000000)
T3EEC 000:643.822 - 0.028ms returns 0
T3EEC 000:643.843 JLINK_WriteReg(R6, 0x00000000)
T3EEC 000:643.861 - 0.027ms returns 0
T3EEC 000:643.880 JLINK_WriteReg(R7, 0x00000000)
T3EEC 000:643.898 - 0.027ms returns 0
T3EEC 000:643.917 JLINK_WriteReg(R8, 0x00000000)
T3EEC 000:643.940 - 0.032ms returns 0
T3EEC 000:643.959 JLINK_WriteReg(R9, 0x20000160)
T3EEC 000:643.978 - 0.027ms returns 0
T3EEC 000:643.997 JLINK_WriteReg(R10, 0x00000000)
T3EEC 000:644.015 - 0.027ms returns 0
T3EEC 000:644.034 JLINK_WriteReg(R11, 0x00000000)
T3EEC 000:644.052 - 0.027ms returns 0
T3EEC 000:644.071 JLINK_WriteReg(R12, 0x00000000)
T3EEC 000:644.089 - 0.027ms returns 0
T3EEC 000:644.109 JLINK_WriteReg(R13 (SP), 0x20001000)
T3EEC 000:644.129 - 0.029ms returns 0
T3EEC 000:644.148 JLINK_WriteReg(R14, 0x20000001)
T3EEC 000:644.182 - 0.042ms returns 0
T3EEC 000:644.201 JLINK_WriteReg(R15 (PC), 0x200000F4)
T3EEC 000:644.219 - 0.027ms returns 0
T3EEC 000:644.238 JLINK_WriteReg(XPSR, 0x01000000)
T3EEC 000:644.257 - 0.027ms returns 0
T3EEC 000:644.276 JLINK_WriteReg(MSP, 0x20001000)
T3EEC 000:644.294 - 0.027ms returns 0
T3EEC 000:644.313 JLINK_WriteReg(PSP, 0x20001000)
T3EEC 000:644.331 - 0.027ms returns 0
T3EEC 000:644.351 JLINK_WriteReg(CFBP, 0x00000000)
T3EEC 000:644.368 - 0.025ms returns 0
T3EEC 000:644.386 JLINK_SetBPEx(Addr = 0x20000000, Type = 0xFFFFFFF2)
T3EEC 000:644.405 - 0.027ms returns 0x00000006
T3EEC 000:644.424 JLINK_Go()
T3EEC 000:644.449   CPU_ReadMem(4 bytes @ 0xE0001000)
T3EEC 000:648.528 - 4.123ms
T3EEC 000:648.562 JLINK_IsHalted()
T3EEC 000:649.205 - 0.672ms returns FALSE
T3EEC 000:649.251 JLINK_HasError()
T3EEC 000:655.788 JLINK_IsHalted()
T3EEC 000:656.330 - 0.555ms returns FALSE
T3EEC 000:656.353 JLINK_HasError()
T3EEC 000:657.754 JLINK_IsHalted()
T3EEC 000:658.950 - 1.208ms returns FALSE
T3EEC 000:658.972 JLINK_HasError()
T3EEC 000:661.010 JLINK_IsHalted()
T3EEC 000:661.597 - 0.600ms returns FALSE
T3EEC 000:661.620 JLINK_HasError()
T3EEC 000:663.705 JLINK_IsHalted()
T3EEC 000:664.297 - 0.605ms returns FALSE
T3EEC 000:664.320 JLINK_HasError()
T3EEC 000:666.069 JLINK_IsHalted()
T3EEC 000:666.523 - 0.469ms returns FALSE
T3EEC 000:666.550 JLINK_HasError()
T3EEC 000:668.184 JLINK_IsHalted()
T3EEC 000:668.814 - 0.644ms returns FALSE
T3EEC 000:668.838 JLINK_HasError()
T3EEC 000:670.236 JLINK_IsHalted()
T3EEC 000:670.892 - 0.672ms returns FALSE
T3EEC 000:670.918 JLINK_HasError()
T3EEC 000:672.879 JLINK_IsHalted()
T3EEC 000:673.509 - 0.645ms returns FALSE
T3EEC 000:673.534 JLINK_HasError()
T3EEC 000:676.095 JLINK_IsHalted()
T3EEC 000:676.735 - 0.657ms returns FALSE
T3EEC 000:676.762 JLINK_HasError()
T3EEC 000:678.162 JLINK_IsHalted()
T3EEC 000:678.816 - 0.669ms returns FALSE
T3EEC 000:678.842 JLINK_HasError()
T3EEC 000:680.071 JLINK_IsHalted()
T3EEC 000:683.612   CPU_ReadMem(2 bytes @ 0x20000000)
T3EEC 000:684.294 - 4.241ms returns TRUE
T3EEC 000:684.324 JLINK_ReadReg(R15 (PC))
T3EEC 000:684.343 - 0.026ms returns 0x20000000
T3EEC 000:684.359 JLINK_ClrBPEx(BPHandle = 0x00000006)
T3EEC 000:684.375 - 0.022ms returns 0x00
T3EEC 000:684.391 JLINK_ReadReg(R0)
T3EEC 000:684.406 - 0.023ms returns 0x00000000
T3EEC 000:684.854 JLINK_WriteMem(0x20000164, 0x29C Bytes, ...)
T3EEC 000:684.876   Data:  D6 1F 06 EB 86 06 05 FA 06 F1 08 43 20 63 10 E0 ...
T3EEC 000:684.905   CPU_WriteMem(668 bytes @ 0x20000164)
T3EEC 000:693.229 - 8.412ms returns 0x29C
T3EEC 000:693.281 JLINK_WriteMem(0x20000400, 0x164 Bytes, ...)
T3EEC 000:693.301   Data:  0E D1 1A 1F 12 68 03 68 1A 43 0D 4B 08 33 1A 60 ...
T3EEC 000:693.338   CPU_WriteMem(356 bytes @ 0x20000400)
T3EEC 000:698.292 - 5.073ms returns 0x164
T3EEC 000:698.381 JLINK_HasError()
T3EEC 000:698.412 JLINK_WriteReg(R0, 0x08000800)
T3EEC 000:698.446 - 0.045ms returns 0
T3EEC 000:698.471 JLINK_WriteReg(R1, 0x00000400)
T3EEC 000:698.494 - 0.034ms returns 0
T3EEC 000:698.517 JLINK_WriteReg(R2, 0x20000164)
T3EEC 000:698.540 - 0.034ms returns 0
T3EEC 000:698.565 JLINK_WriteReg(R3, 0x00000000)
T3EEC 000:698.588 - 0.035ms returns 0
T3EEC 000:698.613 JLINK_WriteReg(R4, 0x00000000)
T3EEC 000:698.636 - 0.035ms returns 0
T3EEC 000:698.661 JLINK_WriteReg(R5, 0x00000000)
T3EEC 000:698.685 - 0.035ms returns 0
T3EEC 000:698.709 JLINK_WriteReg(R6, 0x00000000)
T3EEC 000:698.733 - 0.035ms returns 0
T3EEC 000:698.757 JLINK_WriteReg(R7, 0x00000000)
T3EEC 000:698.781 - 0.035ms returns 0
T3EEC 000:698.828 JLINK_WriteReg(R8, 0x00000000)
T3EEC 000:698.863 - 0.049ms returns 0
T3EEC 000:698.895 JLINK_WriteReg(R9, 0x20000160)
T3EEC 000:698.923 - 0.043ms returns 0
T3EEC 000:698.955 JLINK_WriteReg(R10, 0x00000000)
T3EEC 000:698.988 - 0.046ms returns 0
T3EEC 000:699.014 JLINK_WriteReg(R11, 0x00000000)
T3EEC 000:699.038 - 0.035ms returns 0
T3EEC 000:699.063 JLINK_WriteReg(R12, 0x00000000)
T3EEC 000:699.086 - 0.035ms returns 0
T3EEC 000:699.111 JLINK_WriteReg(R13 (SP), 0x20001000)
T3EEC 000:699.135 - 0.036ms returns 0
T3EEC 000:699.160 JLINK_WriteReg(R14, 0x20000001)
T3EEC 000:699.184 - 0.035ms returns 0
T3EEC 000:699.208 JLINK_WriteReg(R15 (PC), 0x200000F4)
T3EEC 000:699.233 - 0.035ms returns 0
T3EEC 000:699.257 JLINK_WriteReg(XPSR, 0x01000000)
T3EEC 000:699.281 - 0.035ms returns 0
T3EEC 000:699.306 JLINK_WriteReg(MSP, 0x20001000)
T3EEC 000:699.335 - 0.040ms returns 0
T3EEC 000:699.358 JLINK_WriteReg(PSP, 0x20001000)
T3EEC 000:699.381 - 0.032ms returns 0
T3EEC 000:699.403 JLINK_WriteReg(CFBP, 0x00000000)
T3EEC 000:699.425 - 0.079ms returns 0
T3EEC 000:699.505 JLINK_SetBPEx(Addr = 0x20000000, Type = 0xFFFFFFF2)
T3EEC 000:699.542 - 0.053ms returns 0x00000007
T3EEC 000:699.581 JLINK_Go()
T3EEC 000:699.631   CPU_ReadMem(4 bytes @ 0xE0001000)
T3EEC 000:703.372 - 3.841ms
T3EEC 000:703.437 JLINK_IsHalted()
T3EEC 000:704.076 - 0.657ms returns FALSE
T3EEC 000:704.111 JLINK_HasError()
T3EEC 000:705.499 JLINK_IsHalted()
T3EEC 000:706.127 - 0.645ms returns FALSE
T3EEC 000:706.157 JLINK_HasError()
T3EEC 000:707.487 JLINK_IsHalted()
T3EEC 000:707.960 - 0.495ms returns FALSE
T3EEC 000:707.999 JLINK_HasError()
T3EEC 000:709.434 JLINK_IsHalted()
T3EEC 000:710.085 - 0.671ms returns FALSE
T3EEC 000:710.118 JLINK_HasError()
T3EEC 000:711.454 JLINK_IsHalted()
T3EEC 000:712.102 - 0.669ms returns FALSE
T3EEC 000:712.136 JLINK_HasError()
T3EEC 000:713.549 JLINK_IsHalted()
T3EEC 000:714.199 - 0.671ms returns FALSE
T3EEC 000:714.235 JLINK_HasError()
T3EEC 000:715.302 JLINK_IsHalted()
T3EEC 000:715.932 - 0.658ms returns FALSE
T3EEC 000:715.975 JLINK_HasError()
T3EEC 000:717.118 JLINK_IsHalted()
T3EEC 000:717.769 - 0.673ms returns FALSE
T3EEC 000:717.805 JLINK_HasError()
T3EEC 000:719.124 JLINK_IsHalted()
T3EEC 000:719.661 - 0.558ms returns FALSE
T3EEC 000:719.694 JLINK_HasError()
T3EEC 000:722.325 JLINK_IsHalted()
T3EEC 000:722.983 - 0.675ms returns FALSE
T3EEC 000:723.012 JLINK_HasError()
T3EEC 000:724.962 JLINK_IsHalted()
T3EEC 000:725.584 - 0.639ms returns FALSE
T3EEC 000:725.613 JLINK_HasError()
T3EEC 000:727.161 JLINK_IsHalted()
T3EEC 000:727.844 - 0.703ms returns FALSE
T3EEC 000:727.878 JLINK_HasError()
T3EEC 000:729.205 JLINK_IsHalted()
T3EEC 000:729.855 - 0.672ms returns FALSE
T3EEC 000:729.892 JLINK_HasError()
T3EEC 000:731.052 JLINK_IsHalted()
T3EEC 000:731.742 - 0.711ms returns FALSE
T3EEC 000:731.778 JLINK_HasError()
T3EEC 000:733.036 JLINK_IsHalted()
T3EEC 000:733.568 - 0.552ms returns FALSE
T3EEC 000:733.602 JLINK_HasError()
T3EEC 000:735.632 JLINK_IsHalted()
T3EEC 000:739.299   CPU_ReadMem(2 bytes @ 0x20000000)
T3EEC 000:739.989 - 4.384ms returns TRUE
T3EEC 000:740.034 JLINK_ReadReg(R15 (PC))
T3EEC 000:740.061 - 0.038ms returns 0x20000000
T3EEC 000:740.085 JLINK_ClrBPEx(BPHandle = 0x00000007)
T3EEC 000:740.108 - 0.033ms returns 0x00
T3EEC 000:740.131 JLINK_ReadReg(R0)
T3EEC 000:740.153 - 0.033ms returns 0x00000000
T3EEC 000:740.913 JLINK_WriteMem(0x20000164, 0x29C Bytes, ...)
T3EEC 000:740.960   Data:  0C F3 B1 F8 00 C0 0C EA 03 06 9E 42 21 D1 83 00 ...
T3EEC 000:741.003   CPU_WriteMem(668 bytes @ 0x20000164)
T3EEC 000:749.670 - 8.972ms returns 0x29C
T3EEC 000:749.941 JLINK_WriteMem(0x20000400, 0x164 Bytes, ...)
T3EEC 000:750.003   Data:  E1 FD 48 20 8D F8 03 00 20 20 AD F8 00 00 03 20 ...
T3EEC 000:750.063   CPU_WriteMem(356 bytes @ 0x20000400)
T3EEC 000:755.068 - 5.164ms returns 0x164
T3EEC 000:755.128 JLINK_HasError()
T3EEC 000:755.159 JLINK_WriteReg(R0, 0x08000C00)
T3EEC 000:755.194 - 0.047ms returns 0
T3EEC 000:755.222 JLINK_WriteReg(R1, 0x00000400)
T3EEC 000:755.332 - 0.125ms returns 0
T3EEC 000:755.369 JLINK_WriteReg(R2, 0x20000164)
T3EEC 000:755.404 - 0.049ms returns 0
T3EEC 000:755.438 JLINK_WriteReg(R3, 0x00000000)
T3EEC 000:755.473 - 0.048ms returns 0
T3EEC 000:755.506 JLINK_WriteReg(R4, 0x00000000)
T3EEC 000:755.541 - 0.048ms returns 0
T3EEC 000:755.573 JLINK_WriteReg(R5, 0x00000000)
T3EEC 000:755.608 - 0.048ms returns 0
T3EEC 000:755.641 JLINK_WriteReg(R6, 0x00000000)
T3EEC 000:755.675 - 0.047ms returns 0
T3EEC 000:755.707 JLINK_WriteReg(R7, 0x00000000)
T3EEC 000:755.742 - 0.048ms returns 0
T3EEC 000:755.774 JLINK_WriteReg(R8, 0x00000000)
T3EEC 000:755.809 - 0.048ms returns 0
T3EEC 000:755.842 JLINK_WriteReg(R9, 0x20000160)
T3EEC 000:755.876 - 0.048ms returns 0
T3EEC 000:755.909 JLINK_WriteReg(R10, 0x00000000)
T3EEC 000:755.944 - 0.049ms returns 0
T3EEC 000:755.977 JLINK_WriteReg(R11, 0x00000000)
T3EEC 000:756.012 - 0.048ms returns 0
T3EEC 000:756.044 JLINK_WriteReg(R12, 0x00000000)
T3EEC 000:756.079 - 0.047ms returns 0
T3EEC 000:756.111 JLINK_WriteReg(R13 (SP), 0x20001000)
T3EEC 000:756.147 - 0.050ms returns 0
T3EEC 000:756.180 JLINK_WriteReg(R14, 0x20000001)
T3EEC 000:756.218 - 0.055ms returns 0
T3EEC 000:756.260 JLINK_WriteReg(R15 (PC), 0x200000F4)
T3EEC 000:756.294 - 0.047ms returns 0
T3EEC 000:756.327 JLINK_WriteReg(XPSR, 0x01000000)
T3EEC 000:756.362 - 0.049ms returns 0
T3EEC 000:756.394 JLINK_WriteReg(MSP, 0x20001000)
T3EEC 000:756.429 - 0.048ms returns 0
T3EEC 000:756.462 JLINK_WriteReg(PSP, 0x20001000)
T3EEC 000:756.496 - 0.047ms returns 0
T3EEC 000:756.528 JLINK_WriteReg(CFBP, 0x00000000)
T3EEC 000:756.564 - 0.049ms returns 0
T3EEC 000:756.595 JLINK_SetBPEx(Addr = 0x20000000, Type = 0xFFFFFFF2)
T3EEC 000:756.628 - 0.045ms returns 0x00000008
T3EEC 000:756.658 JLINK_Go()
T3EEC 000:756.700   CPU_ReadMem(4 bytes @ 0xE0001000)
T3EEC 000:760.678 - 4.050ms
T3EEC 000:760.733 JLINK_IsHalted()
T3EEC 000:761.361 - 0.655ms returns FALSE
T3EEC 000:761.412 JLINK_HasError()
T3EEC 000:763.057 JLINK_IsHalted()
T3EEC 000:763.691 - 0.660ms returns FALSE
T3EEC 000:763.735 JLINK_HasError()
T3EEC 000:765.638 JLINK_IsHalted()
T3EEC 000:766.179 - 0.568ms returns FALSE
T3EEC 000:766.228 JLINK_HasError()
T3EEC 000:769.990 JLINK_IsHalted()
T3EEC 000:770.620 - 0.650ms returns FALSE
T3EEC 000:770.653 JLINK_HasError()
T3EEC 000:772.000 JLINK_IsHalted()
T3EEC 000:772.625 - 0.645ms returns FALSE
T3EEC 000:772.663 JLINK_HasError()
T3EEC 000:773.909 JLINK_IsHalted()
T3EEC 000:774.567 - 0.684ms returns FALSE
T3EEC 000:774.611 JLINK_HasError()
T3EEC 000:776.479 JLINK_IsHalted()
T3EEC 000:777.114 - 0.657ms returns FALSE
T3EEC 000:777.151 JLINK_HasError()
T3EEC 000:778.526 JLINK_IsHalted()
T3EEC 000:779.170 - 0.667ms returns FALSE
T3EEC 000:779.208 JLINK_HasError()
T3EEC 000:781.266 JLINK_IsHalted()
T3EEC 000:781.888 - 0.672ms returns FALSE
T3EEC 000:781.954 JLINK_HasError()
T3EEC 000:783.944 JLINK_IsHalted()
T3EEC 000:784.573 - 0.651ms returns FALSE
T3EEC 000:784.610 JLINK_HasError()
T3EEC 000:786.932 JLINK_IsHalted()
T3EEC 000:787.568 - 0.662ms returns FALSE
T3EEC 000:787.610 JLINK_HasError()
T3EEC 000:789.077 JLINK_IsHalted()
T3EEC 000:789.722 - 0.671ms returns FALSE
T3EEC 000:789.765 JLINK_HasError()
T3EEC 000:790.932 JLINK_IsHalted()
T3EEC 000:794.478   CPU_ReadMem(2 bytes @ 0x20000000)
T3EEC 000:795.151 - 4.254ms returns TRUE
T3EEC 000:795.205 JLINK_ReadReg(R15 (PC))
T3EEC 000:795.235 - 0.042ms returns 0x20000000
T3EEC 000:795.261 JLINK_ClrBPEx(BPHandle = 0x00000008)
T3EEC 000:795.286 - 0.036ms returns 0x00
T3EEC 000:795.311 JLINK_ReadReg(R0)
T3EEC 000:795.335 - 0.035ms returns 0x00000000
T3EEC 000:796.092 JLINK_WriteMem(0x20000164, 0x29C Bytes, ...)
T3EEC 000:796.126   Data:  69 46 05 48 FF F7 A0 FD 18 21 03 48 FF F7 7B FE ...
T3EEC 000:796.172   CPU_WriteMem(668 bytes @ 0x20000164)
T3EEC 000:804.657 - 8.605ms returns 0x29C
T3EEC 000:804.720 JLINK_WriteMem(0x20000400, 0x164 Bytes, ...)
T3EEC 000:804.747   Data:  FC E7 70 B5 04 46 FF F7 45 FF D0 20 FF F7 14 FF ...
T3EEC 000:804.799   CPU_WriteMem(356 bytes @ 0x20000400)
T3EEC 000:809.696 - 5.030ms returns 0x164
T3EEC 000:809.780 JLINK_HasError()
T3EEC 000:809.817 JLINK_WriteReg(R0, 0x08001000)
T3EEC 000:809.860 - 0.060ms returns 0
T3EEC 000:809.899 JLINK_WriteReg(R1, 0x00000400)
T3EEC 000:809.937 - 0.059ms returns 0
T3EEC 000:809.978 JLINK_WriteReg(R2, 0x20000164)
T3EEC 000:810.014 - 0.053ms returns 0
T3EEC 000:810.051 JLINK_WriteReg(R3, 0x00000000)
T3EEC 000:810.086 - 0.050ms returns 0
T3EEC 000:810.120 JLINK_WriteReg(R4, 0x00000000)
T3EEC 000:810.155 - 0.050ms returns 0
T3EEC 000:810.188 JLINK_WriteReg(R5, 0x00000000)
T3EEC 000:810.221 - 0.048ms returns 0
T3EEC 000:810.253 JLINK_WriteReg(R6, 0x00000000)
T3EEC 000:810.288 - 0.051ms returns 0
T3EEC 000:810.323 JLINK_WriteReg(R7, 0x00000000)
T3EEC 000:810.357 - 0.051ms returns 0
T3EEC 000:810.396 JLINK_WriteReg(R8, 0x00000000)
T3EEC 000:810.431 - 0.052ms returns 0
T3EEC 000:810.467 JLINK_WriteReg(R9, 0x20000160)
T3EEC 000:810.498 - 0.046ms returns 0
T3EEC 000:810.625 JLINK_WriteReg(R10, 0x00000000)
T3EEC 000:810.665 - 0.054ms returns 0
T3EEC 000:810.695 JLINK_WriteReg(R11, 0x00000000)
T3EEC 000:810.719 - 0.034ms returns 0
T3EEC 000:810.746 JLINK_WriteReg(R12, 0x00000000)
T3EEC 000:810.771 - 0.037ms returns 0
T3EEC 000:810.795 JLINK_WriteReg(R13 (SP), 0x20001000)
T3EEC 000:810.825 - 0.043ms returns 0
T3EEC 000:810.851 JLINK_WriteReg(R14, 0x20000001)
T3EEC 000:810.875 - 0.037ms returns 0
T3EEC 000:810.901 JLINK_WriteReg(R15 (PC), 0x200000F4)
T3EEC 000:810.924 - 0.033ms returns 0
T3EEC 000:810.947 JLINK_WriteReg(XPSR, 0x01000000)
T3EEC 000:810.969 - 0.033ms returns 0
T3EEC 000:810.992 JLINK_WriteReg(MSP, 0x20001000)
T3EEC 000:811.014 - 0.032ms returns 0
T3EEC 000:811.037 JLINK_WriteReg(PSP, 0x20001000)
T3EEC 000:811.058 - 0.032ms returns 0
T3EEC 000:811.081 JLINK_WriteReg(CFBP, 0x00000000)
T3EEC 000:811.107 - 0.037ms returns 0
T3EEC 000:811.131 JLINK_SetBPEx(Addr = 0x20000000, Type = 0xFFFFFFF2)
T3EEC 000:811.156 - 0.035ms returns 0x00000009
T3EEC 000:811.179 JLINK_Go()
T3EEC 000:811.212   CPU_ReadMem(4 bytes @ 0xE0001000)
T3EEC 000:815.332 - 4.173ms
T3EEC 000:815.371 JLINK_IsHalted()
T3EEC 000:815.982 - 0.631ms returns FALSE
T3EEC 000:816.022 JLINK_HasError()
T3EEC 000:817.493 JLINK_IsHalted()
T3EEC 000:818.139 - 0.667ms returns FALSE
T3EEC 000:818.174 JLINK_HasError()
T3EEC 000:820.094 JLINK_IsHalted()
T3EEC 000:820.738 - 0.666ms returns FALSE
T3EEC 000:820.774 JLINK_HasError()
T3EEC 000:821.969 JLINK_IsHalted()
T3EEC 000:822.612 - 0.665ms returns FALSE
T3EEC 000:822.649 JLINK_HasError()
T3EEC 000:823.993 JLINK_IsHalted()
T3EEC 000:824.651 - 0.687ms returns FALSE
T3EEC 000:824.700 JLINK_HasError()
T3EEC 000:826.205 JLINK_IsHalted()
T3EEC 000:826.851 - 0.675ms returns FALSE
T3EEC 000:826.895 JLINK_HasError()
T3EEC 000:828.885 JLINK_IsHalted()
T3EEC 000:829.568 - 0.719ms returns FALSE
T3EEC 000:829.621 JLINK_HasError()
T3EEC 000:830.973 JLINK_IsHalted()
T3EEC 000:831.620 - 0.673ms returns FALSE
T3EEC 000:831.663 JLINK_HasError()
T3EEC 000:833.053 JLINK_IsHalted()
T3EEC 000:833.699 - 0.673ms returns FALSE
T3EEC 000:833.744 JLINK_HasError()
T3EEC 000:834.875 JLINK_IsHalted()
T3EEC 000:835.513 - 0.669ms returns FALSE
T3EEC 000:835.560 JLINK_HasError()
T3EEC 000:837.252 JLINK_IsHalted()
T3EEC 000:837.909 - 0.686ms returns FALSE
T3EEC 000:837.956 JLINK_HasError()
T3EEC 000:839.296 JLINK_IsHalted()
T3EEC 000:839.968 - 0.700ms returns FALSE
T3EEC 000:840.034 JLINK_HasError()
T3EEC 000:841.432 JLINK_IsHalted()
T3EEC 000:842.108 - 0.705ms returns FALSE
T3EEC 000:842.156 JLINK_HasError()
T3EEC 000:843.548 JLINK_IsHalted()
T3EEC 000:844.220 - 0.700ms returns FALSE
T3EEC 000:844.266 JLINK_HasError()
T3EEC 000:845.440 JLINK_IsHalted()
T3EEC 000:845.932 - 0.512ms returns FALSE
T3EEC 000:845.967 JLINK_HasError()
T3EEC 000:847.490 JLINK_IsHalted()
T3EEC 000:850.992   CPU_ReadMem(2 bytes @ 0x20000000)
T3EEC 000:851.600 - 4.140ms returns TRUE
T3EEC 000:851.643 JLINK_ReadReg(R15 (PC))
T3EEC 000:851.663 - 0.028ms returns 0x20000000
T3EEC 000:851.681 JLINK_ClrBPEx(BPHandle = 0x00000009)
T3EEC 000:851.698 - 0.026ms returns 0x00
T3EEC 000:851.716 JLINK_ReadReg(R0)
T3EEC 000:851.733 - 0.024ms returns 0x00000000
T3EEC 000:852.400 JLINK_WriteMem(0x20000164, 0x29C Bytes, ...)
T3EEC 000:852.427   Data:  FF F7 68 FE FF F7 DC FE 20 46 FF F7 63 FE FF F7 ...
T3EEC 000:852.461   CPU_WriteMem(668 bytes @ 0x20000164)
T3EEC 000:861.004 - 8.625ms returns 0x29C
T3EEC 000:861.036 JLINK_WriteMem(0x20000400, 0x164 Bytes, ...)
T3EEC 000:861.048   Data:  00 21 F1 20 00 F0 6A F9 00 21 DA 20 00 F0 66 F9 ...
T3EEC 000:861.080   CPU_WriteMem(356 bytes @ 0x20000400)
T3EEC 000:866.159 - 5.152ms returns 0x164
T3EEC 000:866.203 JLINK_HasError()
T3EEC 000:866.221 JLINK_WriteReg(R0, 0x08001400)
T3EEC 000:866.242 - 0.028ms returns 0
T3EEC 000:866.258 JLINK_WriteReg(R1, 0x00000400)
T3EEC 000:866.273 - 0.022ms returns 0
T3EEC 000:866.288 JLINK_WriteReg(R2, 0x20000164)
T3EEC 000:866.303 - 0.021ms returns 0
T3EEC 000:866.318 JLINK_WriteReg(R3, 0x00000000)
T3EEC 000:866.332 - 0.021ms returns 0
T3EEC 000:866.347 JLINK_WriteReg(R4, 0x00000000)
T3EEC 000:866.360 - 0.020ms returns 0
T3EEC 000:866.375 JLINK_WriteReg(R5, 0x00000000)
T3EEC 000:866.396 - 0.028ms returns 0
T3EEC 000:866.411 JLINK_WriteReg(R6, 0x00000000)
T3EEC 000:866.424 - 0.020ms returns 0
T3EEC 000:866.438 JLINK_WriteReg(R7, 0x00000000)
T3EEC 000:866.453 - 0.021ms returns 0
T3EEC 000:866.467 JLINK_WriteReg(R8, 0x00000000)
T3EEC 000:866.481 - 0.021ms returns 0
T3EEC 000:866.496 JLINK_WriteReg(R9, 0x20000160)
T3EEC 000:866.510 - 0.021ms returns 0
T3EEC 000:866.525 JLINK_WriteReg(R10, 0x00000000)
T3EEC 000:866.540 - 0.022ms returns 0
T3EEC 000:866.555 JLINK_WriteReg(R11, 0x00000000)
T3EEC 000:866.569 - 0.021ms returns 0
T3EEC 000:866.585 JLINK_WriteReg(R12, 0x00000000)
T3EEC 000:866.600 - 0.022ms returns 0
T3EEC 000:866.615 JLINK_WriteReg(R13 (SP), 0x20001000)
T3EEC 000:866.631 - 0.023ms returns 0
T3EEC 000:866.646 JLINK_WriteReg(R14, 0x20000001)
T3EEC 000:866.661 - 0.021ms returns 0
T3EEC 000:866.676 JLINK_WriteReg(R15 (PC), 0x200000F4)
T3EEC 000:866.692 - 0.023ms returns 0
T3EEC 000:866.709 JLINK_WriteReg(XPSR, 0x01000000)
T3EEC 000:866.725 - 0.022ms returns 0
T3EEC 000:866.740 JLINK_WriteReg(MSP, 0x20001000)
T3EEC 000:866.754 - 0.021ms returns 0
T3EEC 000:866.769 JLINK_WriteReg(PSP, 0x20001000)
T3EEC 000:866.784 - 0.022ms returns 0
T3EEC 000:866.801 JLINK_WriteReg(CFBP, 0x00000000)
T3EEC 000:866.817 - 0.022ms returns 0
T3EEC 000:866.831 JLINK_SetBPEx(Addr = 0x20000000, Type = 0xFFFFFFF2)
T3EEC 000:866.848 - 0.023ms returns 0x0000000A
T3EEC 000:866.864 JLINK_Go()
T3EEC 000:866.887   CPU_ReadMem(4 bytes @ 0xE0001000)
T3EEC 000:870.638 - 3.799ms
T3EEC 000:870.677 JLINK_IsHalted()
T3EEC 000:871.302 - 0.647ms returns FALSE
T3EEC 000:871.340 JLINK_HasError()
T3EEC 000:873.496 JLINK_IsHalted()
T3EEC 000:874.201 - 0.719ms returns FALSE
T3EEC 000:874.226 JLINK_HasError()
T3EEC 000:875.369 JLINK_IsHalted()
T3EEC 000:876.104 - 0.750ms returns FALSE
T3EEC 000:876.133 JLINK_HasError()
T3EEC 000:877.268 JLINK_IsHalted()
T3EEC 000:877.716 - 0.462ms returns FALSE
T3EEC 000:877.742 JLINK_HasError()
T3EEC 000:880.291 JLINK_IsHalted()
T3EEC 000:880.839 - 0.595ms returns FALSE
T3EEC 000:880.908 JLINK_HasError()
T3EEC 000:882.369 JLINK_IsHalted()
T3EEC 000:882.898 - 0.541ms returns FALSE
T3EEC 000:882.920 JLINK_HasError()
T3EEC 000:884.405 JLINK_IsHalted()
T3EEC 000:884.929 - 0.564ms returns FALSE
T3EEC 000:885.002 JLINK_HasError()
T3EEC 000:886.462 JLINK_IsHalted()
T3EEC 000:887.027 - 0.606ms returns FALSE
T3EEC 000:887.102 JLINK_HasError()
T3EEC 000:888.455 JLINK_IsHalted()
T3EEC 000:888.977 - 0.562ms returns FALSE
T3EEC 000:889.052 JLINK_HasError()
T3EEC 000:890.462 JLINK_IsHalted()
T3EEC 000:891.001 - 0.578ms returns FALSE
T3EEC 000:891.078 JLINK_HasError()
T3EEC 000:892.973 JLINK_IsHalted()
T3EEC 000:893.602 - 0.642ms returns FALSE
T3EEC 000:893.624 JLINK_HasError()
T3EEC 000:895.643 JLINK_IsHalted()
T3EEC 000:896.246 - 0.617ms returns FALSE
T3EEC 000:896.269 JLINK_HasError()
T3EEC 000:897.658 JLINK_IsHalted()
T3EEC 000:898.309 - 0.665ms returns FALSE
T3EEC 000:898.331 JLINK_HasError()
T3EEC 000:899.870 JLINK_IsHalted()
T3EEC 000:900.508 - 0.651ms returns FALSE
T3EEC 000:900.531 JLINK_HasError()
T3EEC 000:902.758 JLINK_IsHalted()
T3EEC 000:906.500   CPU_ReadMem(2 bytes @ 0x20000000)
T3EEC 000:907.216 - 4.472ms returns TRUE
T3EEC 000:907.240 JLINK_ReadReg(R15 (PC))
T3EEC 000:907.255 - 0.021ms returns 0x20000000
T3EEC 000:907.268 JLINK_ClrBPEx(BPHandle = 0x0000000A)
T3EEC 000:907.280 - 0.018ms returns 0x00
T3EEC 000:907.293 JLINK_ReadReg(R0)
T3EEC 000:907.305 - 0.017ms returns 0x00000000
T3EEC 000:907.963 JLINK_WriteMem(0x20000164, 0x29C Bytes, ...)
T3EEC 000:907.994   Data:  48 46 03 F0 99 FE 10 D2 23 46 2D 22 28 46 06 99 ...
T3EEC 000:908.023   CPU_WriteMem(668 bytes @ 0x20000164)
T3EEC 000:916.403 - 8.514ms returns 0x29C
T3EEC 000:916.538 JLINK_WriteMem(0x20000400, 0x164 Bytes, ...)
T3EEC 000:916.584   Data:  00 10 02 40 05 49 08 88 B0 F5 70 4F 02 DB A0 F5 ...
T3EEC 000:916.671   CPU_WriteMem(356 bytes @ 0x20000400)
T3EEC 000:921.627 - 5.121ms returns 0x164
T3EEC 000:921.676 JLINK_HasError()
T3EEC 000:921.705 JLINK_WriteReg(R0, 0x08001800)
T3EEC 000:921.728 - 0.030ms returns 0
T3EEC 000:921.746 JLINK_WriteReg(R1, 0x00000400)
T3EEC 000:921.766 - 0.026ms returns 0
T3EEC 000:921.783 JLINK_WriteReg(R2, 0x20000164)
T3EEC 000:921.802 - 0.027ms returns 0
T3EEC 000:921.821 JLINK_WriteReg(R3, 0x00000000)
T3EEC 000:921.840 - 0.026ms returns 0
T3EEC 000:921.858 JLINK_WriteReg(R4, 0x00000000)
T3EEC 000:921.877 - 0.026ms returns 0
T3EEC 000:921.894 JLINK_WriteReg(R5, 0x00000000)
T3EEC 000:921.913 - 0.026ms returns 0
T3EEC 000:921.931 JLINK_WriteReg(R6, 0x00000000)
T3EEC 000:921.955 - 0.031ms returns 0
T3EEC 000:921.972 JLINK_WriteReg(R7, 0x00000000)
T3EEC 000:921.991 - 0.026ms returns 0
T3EEC 000:922.009 JLINK_WriteReg(R8, 0x00000000)
T3EEC 000:922.029 - 0.026ms returns 0
T3EEC 000:922.047 JLINK_WriteReg(R9, 0x20000160)
T3EEC 000:922.066 - 0.026ms returns 0
T3EEC 000:922.084 JLINK_WriteReg(R10, 0x00000000)
T3EEC 000:922.104 - 0.027ms returns 0
T3EEC 000:922.122 JLINK_WriteReg(R11, 0x00000000)
T3EEC 000:922.141 - 0.027ms returns 0
T3EEC 000:922.159 JLINK_WriteReg(R12, 0x00000000)
T3EEC 000:922.179 - 0.027ms returns 0
T3EEC 000:922.197 JLINK_WriteReg(R13 (SP), 0x20001000)
T3EEC 000:922.217 - 0.028ms returns 0
T3EEC 000:922.235 JLINK_WriteReg(R14, 0x20000001)
T3EEC 000:922.255 - 0.027ms returns 0
T3EEC 000:922.273 JLINK_WriteReg(R15 (PC), 0x200000F4)
T3EEC 000:922.293 - 0.027ms returns 0
T3EEC 000:922.311 JLINK_WriteReg(XPSR, 0x01000000)
T3EEC 000:922.330 - 0.027ms returns 0
T3EEC 000:922.348 JLINK_WriteReg(MSP, 0x20001000)
T3EEC 000:922.368 - 0.027ms returns 0
T3EEC 000:922.386 JLINK_WriteReg(PSP, 0x20001000)
T3EEC 000:922.406 - 0.027ms returns 0
T3EEC 000:922.424 JLINK_WriteReg(CFBP, 0x00000000)
T3EEC 000:922.443 - 0.027ms returns 0
T3EEC 000:922.461 JLINK_SetBPEx(Addr = 0x20000000, Type = 0xFFFFFFF2)
T3EEC 000:922.482 - 0.028ms returns 0x0000000B
